Title: * C:/Users/merch/OneDrive/Documents/LTSpice/RF/impedanceTransformer2/imp_transfx/bw_control.asc
Date: Sun Aug 13 15:09:26 2017
Plotname: AC Analysis
Flags: complex forward linear
No. Variables: 10
No. Points:          100
Offset:   0.0000000000000000e+000
Command: Linear Technology Corporation LTspice XVII
Variables:
	0	frequency	frequency
	1	V(c)	voltage
	2	V(n001)	voltage
	3	V(out)	voltage
	4	I(C2)	device_current
	5	I(C1)	device_current
	6	I(L)	device_current
	7	I(Rl)	device_current
	8	I(R1)	device_current
	9	I(Vcc)	device_current
Values:
0		1.010000000000000e+007,0.000000000000000e+000
	4.693993547598296e-002,1.458384021120185e-001
	9.999904694946599e-001,1.458369437425811e-006
	1.285359750900776e-002,4.670690959444194e-002
	-7.447124970401460e-004,2.049425830139114e-004
	-7.318588995311383e-004,2.516494926083533e-004
	8.271639529330060e-004,-2.662331869826115e-004
	1.285359750900777e-005,4.670690959444194e-005
	-9.530505340186770e-005,1.458369437425811e-005
	-9.530505340138440e-005,1.458369437425811e-005
1		1.011212121212121e+007,0.000000000000000e+000
	4.874818712950813e-002,1.483238668240521e-001
	9.999904875769956e-001,1.483223836002161e-006
	1.339364239460596e-002,4.751598849821777e-002
	-7.585219809812006e-004,2.138095509070881e-004
	-7.451283385865946e-004,2.613255394053059e-004
	8.402525686313433e-004,-2.761577777653275e-004
	1.339364239460596e-005,4.751598849821777e-005
	-9.512423004474875e-005,1.483223836002161e-005
	-9.512423004398585e-005,1.483223836002160e-005
2		1.012424242424243e+007,0.000000000000000e+000
	5.065642898713257e-002,1.508788766608289e-001
	9.999905066592233e-001,1.508773678871500e-006
	1.396441485821093e-002,4.834833780698489e-002
	-7.727343512744082e-004,2.231882944862560e-004
	-7.587699364161972e-004,2.715366322932409e-004
	8.537033441834063e-004,-2.866243690819559e-004
	1.396441485821093e-005,4.834833780698489e-005
	-9.493340776720909e-005,1.508773678871500e-005
	-9.493340776711712e-005,1.508773678871500e-005
3		1.013636363636364e+007,0.000000000000000e+000
	5.267178162659699e-002,1.535053836075453e-001
	9.999905268125482e-001,1.535038485690596e-006
	1.456814150245274e-002,4.920466588549648e-002
	-7.873622788663318e-004,2.331162072904021e-004
	-7.727941373638792e-004,2.823208731758986e-004
	8.675260118824744e-004,-2.976712580328046e-004
	1.456814150245274e-005,4.920466588549648e-005
	-9.473187451859513e-005,1.535038485690596e-005
	-9.473187451813914e-005,1.535038485690596e-005
4		1.014848484848485e+007,0.000000000000000e+000
	5.480197203000865e-002,1.562052913452247e-001
	9.999905481142393e-001,1.562037293079316e-006
	1.520724129815854e-002,5.008567358525934e-002
	-8.024183685531479e-004,2.436339351988620e-004
	-7.872111272549895e-004,2.937196087841214e-004
	8.817299848634127e-004,-3.093399817149146e-004
	1.520724129815854e-005,5.008567358525934e-005
	-9.451885760842306e-005,1.562037293079316e-005
	-9.451885760736190e-005,1.562037293079316e-005
5		1.016060606060606e+007,0.000000000000000e+000
	5.705539155696622e-002,1.589804284043007e-001
	9.999905706482092e-001,1.589788386159145e-006
	1.588434425951330e-002,5.099204649743460e-002
	-8.179150339979418e-004,2.547856943868386e-004
	-8.020306897384284e-004,3.057777408842731e-004
	8.963242076475528e-004,-3.216756247458646e-004
	1.588434425951330e-005,5.099204649743460e-005
	-9.429351790912429e-005,1.589788386159145e-005
	-9.429351790823937e-005,1.589788386159145e-005
6		1.017272727272728e+007,0.000000000000000e+000
	5.944115966739791e-002,1.618325154534215e-001
	9.999905945056516e-001,1.618308971444501e-006
	1.660231201238564e-002,5.192444542483355e-002
	-8.338643432586678e-004,2.666196218277245e-004
	-8.172620312462825e-004,3.185440672525581e-004
	9.113169747301078e-004,-3.347271569670031e-004
	1.660231201238564e-005,5.192444542483355e-005
	-9.405494348382537e-005,1.618308971444500e-005
	-9.405494348357912e-005,1.618308971444500e-005
7		1.018484848484849e+007,0.000000000000000e+000
	6.196919389069243e-002,1.647631255687613e-001
	9.999906197857411e-001,1.647614779539818e-006
	1.736426042761954e-002,5.288349471423531e-002
	-8.502778288197551e-004,2.791881613580807e-004
	-8.329135683921355e-004,3.320716560723159e-004
	9.267157109816403e-004,-3.485478038677141e-004
	1.736426042761954e-005,5.288349471423530e-005
	-9.380214258950487e-005,1.647614779539818e-005
	-9.380214258891684e-005,1.647614779539818e-005
8		1.019696969696970e+007,0.000000000000000e+000
	6.465028654413942e-002,1.677736361047928e-001
	9.999906465963996e-001,1.677719583852090e-006
	1.817358449599930e-002,5.386976801939692e-002
	-8.671662549248199e-004,2.925484884264018e-004
	-8.489926704288206e-004,3.464182564457987e-004
	9.425267064340465e-004,-3.631954522843196e-004
	1.817358449599930e-005,5.386976801939692e-005
	-9.353403600522603e-005,1.677719583852090e-005
	-9.353403600420585e-005,1.677719583852090e-005
9		1.020909090909092e+007,0.000000000000000e+000
	6.749618869405907e-002,1.708651705200273e-001
	9.999906750551364e-001,1.708634618854084e-006
	1.903398562197074e-002,5.488377098043700e-002
	-8.845393335772656e-004,3.067629766799089e-004
	-8.655053479552946e-004,3.616467476603459e-004
	9.587547965914026e-004,-3.787330938488868e-004
	1.903398562197074e-005,5.488377098043700e-005
	-9.324944863610774e-005,1.708634618854085e-005
	-9.324944863609019e-005,1.708634618854084e-005
10		1.022121212121213e+007,0.000000000000000e+000
	7.051970181992845e-002,1.740385281927991e-001
	9.999907052899654e-001,1.740367878249208e-006
	1.994950150681906e-002,5.592592020415869e-002
	-9.024053788652520e-004,3.218997094677271e-004
	-8.824558773584332e-004,3.778256296718858e-004
	9.754029777054367e-004,-3.952293084543779e-004
	1.994950150681906e-005,5.592592020415869e-005
	-9.294710034700369e-005,1.740367878249208e-005
	-9.294710034635223e-005,1.740367878249208e-005
11		1.023333333333334e+007,0.000000000000000e+000
	7.373477757549493e-002,1.772940998838787e-001
	9.999907374404015e-001,1.772923269606091e-006
	2.092453877587570e-002,5.699651780941066e-002
	-9.207708872271769e-004,3.380330391043894e-004
	-8.998463484513015e-004,3.950295569138002e-004
	9.924719444377921e-004,-4.127587896098610e-004
	2.092453877587571e-005,5.699651780941066e-005
	-9.262559598649066e-005,1.772923269606091e-005
	-9.262559598544051e-005,1.772923269606091e-005
12		1.024545454545455e+007,0.000000000000000e+000
	7.715662592792665e-002,1.806317660543225e-001
	9.999907716585428e-001,1.806299597547249e-006
	2.196390847435181e-002,5.809572065835891e-002
	-9.396400288446197e-004,3.552441962764613e-004
	-9.176761203702679e-004,4.133399169348202e-004
	1.009959534943329e-003,-4.314029129102927e-004
	2.196390847435181e-005,5.809572065835891e-005
	-9.228341457306163e-005,1.806299597547249e-005
	-9.228341457223621e-005,1.806299597547249e-005
13		1.025757575757577e+007,0.000000000000000e+000
	8.080183177890862e-002,1.840507747175395e-001
	9.999908081102368e-001,1.840489342281972e-006
	2.307286450715835e-002,5.922350322486603e-002
	-9.590140324675368e-004,3.736219511968441e-004
	-9.359411679603787e-004,4.328454544217101e-004
	1.027860065593511e-003,-4.512503478445299e-004
	2.307286450715835e-005,5.922350322486603e-005
	-9.191889763313282e-005,1.840489342281972e-005
	-9.191889763227046e-005,1.840489342281972e-005
14		1.026969696969698e+007,0.000000000000000e+000
	8.468847990659564e-002,1.875495948820672e-001
	9.999908469763293e-001,1.875477194048732e-006
	2.425714502224557e-002,6.037961285094701e-002
	-9.788904425697977e-004,3.932633268935129e-004
	-9.546332975475520e-004,4.536429397444599e-004
	1.046163534254526e-003,-4.723977116849473e-004
	2.425714502224557e-005,6.037961285094701e-005
	-9.153023670697337e-005,1.875477194048732e-005
	-9.153023670660510e-005,1.875477194048732e-005
15		1.028181818181819e+007,0.000000000000000e+000
	8.883628768352996e-002,1.911257409140911e-001
	9.999908884539923e-001,1.911238296757943e-006
	2.552301662494246e-002,6.156351590733026e-002
	-9.992622237285404e-004,4.142743632006204e-004
	-9.737392071035977e-004,4.758378791079506e-004
	1.064854667180644e-003,-4.949502620755300e-004
	2.552301662494246e-005,6.156351590733026e-005
	-9.111546007704624e-005,1.911238296757943e-005
	-9.111546007689597e-005,1.911238296757943e-005
16		1.029393939393941e+007,0.000000000000000e+000
	9.326674448212208e-002,1.947755623050294e-001
	9.999909327581174e-001,1.947736145688837e-006
	2.687732114971345e-002,6.277433310040902e-002
	-1.020116682445171e-003,4.367709273852956e-004
	-9.932393612954572e-004,4.995452604857047e-004
	1.083911780123057e-003,-5.190226219425931e-004
	2.687732114971346e-005,6.277433310040902e-005
	-9.067241882759953e-005,1.947736145688837e-005
	-9.067241882654287e-005,1.947736145688837e-005
17		1.030606060606062e+007,0.000000000000000e+000
	9.800325592286970e-002,1.984939923609652e-001
	9.999909801227581e-001,1.984920074408908e-006
	2.832752448895736e-002,6.401076185192522e-002
	-1.041434171216474e-003,4.608795636117614e-004
	-1.013106646727517e-003,5.248903254636867e-004
	1.103305419147506e-003,-5.447395262077758e-004
	2.832752448895736e-005,6.401076185192522e-005
	-9.019877241998884e-005,1.984920074408908e-005
	-9.019877241889240e-005,1.984920074408908e-005
18		1.031818181818183e+007,0.000000000000000e+000
	1.030712900820881e-001,2.022742482338804e-001
	9.999910308025929e-001,2.022722255116253e-006
	2.988176666416056e-002,6.527098331761448e-002
	-1.063186533481043e-003,4.867383682480025e-004
	-1.033304766816883e-003,5.520093515656168e-004
	1.122996740888933e-003,-5.722365741167795e-004
	2.988176666416056e-005,6.527098331761448e-005
	-8.969197407205048e-005,2.022722255116253e-005
	-8.969197407115992e-005,2.022722255116253e-005
19		1.033030303030304e+007,0.000000000000000e+000
	1.084985213667171e-001,2.061074734954866e-001
	9.999910850743630e-001,2.061054124413622e-006
	3.154891189471607e-002,6.655255120749580e-002
	-1.085335241112679e-003,5.144978708830890e-004
	-1.053786329217963e-003,5.810504220905849e-004
	1.142935585588728e-003,-6.016609633347211e-004
	3.154891189471607e-005,6.655255120749581e-005
	-8.914925637076459e-005,2.061054124413622e-005
	-8.914925637037996e-005,2.061054124413622e-005
20		1.034242424242426e+007,0.000000000000000e+000
	1.143149658708642e-001,2.099823131346638e-001
	9.999911432382264e-001,2.099802133325305e-006
	3.333859683805923e-002,6.785225912893834e-002
	-1.107829168488829e-003,5.443218912358910e-004
	-1.074490571650770e-003,6.121741503648295e-004
	1.163058189387507e-003,-6.331721716980826e-004
	3.333859683805923e-005,6.785225912893835e-005
	-8.856761773673622e-005,2.099802133325305e-005
	-8.856761773645694e-005,2.099802133325305e-005
21		1.035454545454547e+007,0.000000000000000e+000
	1.205530995101652e-001,2.138844094857461e-001
	9.999912056189390e-001,2.138822706630395e-006
	3.526127439595773e-002,6.916598270700508e-002
	-1.130601939032531e-003,5.763883291257034e-004
	-1.095340664636573e-003,6.455543118327085e-004
	1.183284475247451e-003,-6.669425388990125e-004
	3.526127439595773e-005,6.916598270700508e-005
	-8.794381061087738e-005,2.138822706630395e-005
	-8.794381061050238e-005,2.138822706630395e-005
22		1.036666666666668e+007,0.000000000000000e+000
	1.272479469104091e-001,2.177958062523103e-001
	9.999912725667435e-001,2.177936283160272e-006
	3.732824944928064e-002,7.048849226955330e-002
	-1.153568771910014e-003,6.108898273790556e-004
	-1.116240522460733e-003,6.813783196486088e-004
	1.203514855026366e-003,-7.031576824802116e-004
	3.732824944928064e-005,7.048849226955329e-005
	-8.727433256563344e-005,2.177936283160272e-005
	-8.727433256527917e-005,2.177936283160272e-005
23		1.037878787878790e+007,0.000000000000000e+000
	1.344371246942610e-001,2.216942466227818e-001
	9.999913444578025e-001,2.216920297024847e-006
	3.955170152851722e-002,7.181323145968172e-002
	-1.176622748959638e-003,6.480342247882645e-004
	-1.137071047431121e-003,7.198474562479460e-004
	1.223626469407475e-003,-7.420166592181945e-004
	3.955170152851722e-005,7.181323145968172e-005
	-8.655542197635416e-005,2.216920297024847e-005
	-8.655542197533173e-005,2.216920297024848e-005
24		1.039090909090911e+007,0.000000000000000e+000
	1.421608172160684e-001,2.255523507077750e-001
	9.999914216939553e-001,2.255500952068229e-006
	4.194468766830334e-002,7.313205682418200e-002
	-1.199630416068357e-003,6.880446866188195e-004
	-1.157685728400053e-003,7.611767434430013e-004
	1.243468788847842e-003,-7.837317529636836e-004
	4.194468766830334e-005,7.313205682418200e-005
	-8.578306044778869e-005,2.255500952068229e-005
	-8.578306044726425e-005,2.255500952068229e-005
25		1.040303030303032e+007,0.000000000000000e+000
	1.504616556617829e-001,2.293366575137009e-001
	9.999915047015097e-001,2.293343641700592e-006
	4.452111643891402e-002,7.443493333049824e-002
	-1.222426630874768e-003,7.311593620908890e-004
	-1.177905514435855e-003,8.055942954213871e-004
	1.262858499339827e-003,-8.285277318383930e-004
	4.452111643891402e-005,7.443493333049824e-005
	-8.495298490397268e-005,2.293343641700592e-005
	-8.495298490340808e-005,2.293343641700592e-005
26		1.041515151515153e+007,0.000000000000000e+000
	1.593844624706129e-001,2.330065179217010e-001
	9.999915939286855e-001,2.330041878798222e-006
	4.729568129826670e-002,7.570958104671126e-002
	-1.244808572542028e-003,7.776303700316870e-004
	-1.197512891243762e-003,8.533399510783984e-004
	1.281573604389569e-003,-8.766403698663806e-004
	4.729568129826670e-005,7.570958104671126e-005
	-8.406071314580726e-005,2.330041878798222e-005
	-8.406071314470687e-005,2.330041878798222e-005
27		1.042727272727275e+007,0.000000000000000e+000
	1.689758119871352e-001,2.365128284154599e-001
	9.999916898412216e-001,2.365104633108268e-006
	5.028373787264113e-002,7.694106911309258e-002
	-1.266528843330959e-003,8.277218538851349e-004
	-1.216245105458317e-003,9.046629229982274e-004
	1.299346693243726e-003,-9.283139693293100e-004
	5.028373787264113e-005,7.694106911309258e-005
	-8.310158778540865e-005,2.365104633108268e-005
	-8.310158778446208e-005,2.365104633108268e-005
28		1.043939393939396e+007,0.000000000000000e+000
	1.792833449574705e-001,2.397966016505763e-001
	9.999917929155204e-001,2.397942037085393e-006
	5.350110548903826e-002,7.811135497126365e-002
	-1.287287621393216e-003,8.817067742868963e-004
	-1.233786515904178e-003,9.598181292581601e-004
	1.315857360699983e-003,-9.837975496290140e-004
	5.350110548903826e-005,7.811135497126364e-005
	-8.207084479580500e-005,2.397942037085393e-005
	-8.207084479572302e-005,2.397942037085393e-005
29		1.045151515151517e+007,0.000000000000000e+000
	1.903547590029572e-001,2.427873808207617e-001
	9.999919036285538e-001,2.427849529712319e-006
	5.696376824812140e-002,7.919877005371599e-002
	-1.306723877296604e-003,9.398620213435730e-004
	-1.249760109048482e-003,1.019060791397289e-003
	1.330723823511042e-003,-1.043339286694412e-003
	5.696376824812140e-005,7.919877005371599e-005
	-8.096371446255968e-005,2.427849529712319e-005
	-8.096371446164596e-005,2.427849529712319e-005
30		1.046363636363639e+007,0.000000000000000e+000
	2.022363800191861e-001,2.454015220460474e-001
	9.999920224435758e-001,2.453990680553669e-006
	6.068744527144178e-002,8.017745837738800e-002
	-1.324405753550832e-003,1.002461331556332e-003
	-1.263718308279390e-003,1.082638789933719e-003
	1.343493872521829e-003,-1.107178696739256e-003
	6.068744527144178e-005,8.017745837738801e-005
	-7.977556424243897e-005,2.453990680553669e-005
	-7.977556424232368e-005,2.453990680553669e-005
31		1.047575757575760e+007,0.000000000000000e+000
	2.149712017488783e-001,2.475403950648511e-001
	9.999921497905197e-001,2.475379196856542e-006
	6.468699382648120e-002,8.101678249780413e-002
	-1.339820339900826e-003,1.069765391610161e-003
	-1.275133346074345e-003,1.150782174107965e-003
	1.353635440878509e-003,-1.175535966076531e-003
	6.468699382648120e-005,8.101678249780413e-005
	-7.850209480416414e-005,2.475379196856542e-005
	-7.850209480353421e-005,2.475379196856542e-005
32		1.048787878787881e+007,0.000000000000000e+000
	2.285962648923886e-001,2.490885901552183e-001
	9.999922860397886e-001,2.490860992942253e-006
	6.897560352840380e-002,8.168072298015536e-002
	-1.352363273078977e-003,1.142008414554958e-003
	-1.283387669550573e-003,1.223689137535114e-003
	1.360527271665313e-003,-1.248597747464536e-003
	6.897560352840380e-005,8.168072298015536e-005
	-7.713960211474001e-005,2.490860992942253e-005
	-7.713960211375159e-005,2.490860992942253e-005
33		1.050000000000002e+007,0.000000000000000e+000
	2.431392370770652e-001,2.499122714043269e-001
	9.999924314680562e-001,2.499097723066038e-006
	7.356373597388040e-002,8.212731391926552e-002
	-1.361328865150491e-003,1.219380403795978e-003
	-1.287765129176611e-003,1.301507717715243e-003
	1.363450448615710e-003,-1.326498694945903e-003
	7.356373597388040e-005,8.212731391926552e-005
	-7.568531943909911e-005,2.499097723066038e-005
	-7.568531943835666e-005,2.499097723066038e-005
34		1.051212121212124e+007,0.000000000000000e+000
	2.586140572141225e-001,2.498578857256581e-001
	9.999925862147101e-001,2.498553871717864e-006
	7.845776397368912e-002,8.230817897564037e-002
	-1.365901835111702e-003,1.302004310193025e-003
	-1.287444071138012e-003,1.384312489168666e-003
	1.361581924038072e-003,-1.409298027885845e-003
	7.845776397368912e-005,8.230817897564038e-005
	-7.413785290005876e-005,2.498553871717864e-005
	-7.413785289900332e-005,2.498553871717864e-005
35		1.052424242424245e+007,0.000000000000000e+000
	2.750155317006104e-001,2.487515243771374e-001
	9.999927502278148e-001,2.487490368867686e-006
	8.365827099933670e-002,8.216826032305638e-002
	-1.365152192272997e-003,1.389907387688318e-003
	-1.281493921273660e-003,1.472075648011374e-003
	1.353991643126380e-003,-1.496950551700051e-003
	8.365827099933670e-005,8.216826032305638e-005
	-7.249772185272044e-005,2.487490368867686e-005
	-7.249772185247139e-005,2.487490368867686e-005
36		1.053636363636366e+007,0.000000000000000e+000
	2.923128285356064e-001,2.463993367235572e-001
	9.999929231990534e-001,2.463968727548297e-006
	8.915798867429768e-002,8.164586621955039e-002
	-1.358035388261851e-003,1.482986333200940e-003
	-1.268877399587553e-003,1.564632199420490e-003
	1.339645409053898e-003,-1.589271886695974e-003
	8.915798867429768e-005,8.164586621955039e-005
	-7.076800946634471e-005,2.463968727548297e-005
	-7.076800946581585e-005,2.463968727548297e-005
37		1.054848484848488e+007,0.000000000000000e+000
	3.104419248202628e-001,2.425895059516080e-001
	9.999931044882033e-001,2.425870800808072e-006
	9.493938332643609e-002,8.067319908563961e-002
	-1.343400476074785e-003,1.580966345757374e-003
	-1.248461092748349e-003,1.661639544843013e-003
	1.317416210715143e-003,-1.685898252851094e-003
	9.493938332643608e-005,8.067319908563961e-005
	-6.895511796679405e-005,2.425870800808072e-005
	-6.895511796667364e-005,2.425870800808072e-005
38		1.056060606060609e+007,0.000000000000000e+000
	3.292972406110515e-001,2.370963948444453e-001
	9.999932930394758e-001,2.370940239042063e-006
	1.009719574856919e-001,7.917755935972727e-002
	-1.320009595985665e-003,1.683355156238413e-003
	-1.219037638499973e-003,1.762532715598141e-003
	1.286107243742815e-003,-1.786242117988561e-003
	1.009719574856919e-004,7.917755935972727e-005
	-6.706960524284242e-005,2.370940239042063e-005
	-6.706960524183181e-005,2.370940239042063e-005
39		1.057272727272730e+007,0.000000000000000e+000
	3.487229515361559e-001,2.296875242446453e-001
	9.999934872946424e-001,2.296852273923714e-006
	1.072094135505575e-001,7.708344096131550e-002
	-1.286572481180750e-003,1.789394446816350e-003
	-1.179363067630193e-003,1.866477887777666e-003
	1.244490121206042e-003,-1.889446410516903e-003
	1.072094135505575e-004,7.708344096131551e-005
	-6.512705357584866e-005,2.296852273923713e-005
	-6.512705357564208e-005,2.296852273923713e-005
40		1.058484848484851e+007,0.000000000000000e+000
	3.685048157854018e-001,2.201340089189597e-001
	9.999936851113068e-001,2.201318076008837e-006
	1.135869358548885e-001,7.431572659584861e-002
	-1.241799582089689e-003,1.898012923193679e-003
	-1.128212646234801e-003,1.972328649789527e-003
	1.191361533167391e-003,-1.994341830549615e-003
